time	V(bit0)	V(bit1)	V(bit2)	V(bit3)	V(bitline0)	V(bitline1)
0.000000000000000e+00	0.000000e+00	0.000000e+00	0.000000e+00	0.000000e+00	0.000000e+00	0.000000e+00
2.246093783376700e-15	1.143741e+00	5.717945e-01	1.143741e+00	8.836343e-13	4.955990e-01	4.955357e-01
3.218913642579078e-15	1.347276e+00	6.735438e-01	1.347276e+00	1.273355e-12	5.809625e-01	5.828838e-01
5.164553360983833e-15	1.347183e+00	6.734883e-01	1.347183e+00	2.041515e-12	5.838588e-01	5.906592e-01
9.055832797793345e-15	1.347174e+00	6.734821e-01	1.347174e+00	3.507084e-12	6.075029e-01	6.195069e-01
1.683839167141237e-14	1.347176e+00	6.734834e-01	1.347176e+00	6.285274e-12	6.397364e-01	6.588229e-01
2.450982588036746e-14	1.347175e+00	6.734829e-01	1.347175e+00	8.716836e-12	6.528638e-01	6.762043e-01
3.985269429827764e-14	1.347176e+00	6.734834e-01	1.347176e+00	1.262815e-11	6.600122e-01	6.864743e-01
6.102772668672687e-14	1.347175e+00	6.734832e-01	1.347175e+00	1.645631e-11	6.621144e-01	6.896937e-01
9.582120929994412e-14	1.347176e+00	6.734834e-01	1.347176e+00	2.023627e-11	6.620585e-01	6.898227e-01
1.405285641131513e-13	1.347175e+00	6.734833e-01	1.347175e+00	2.267607e-11	6.616734e-01	6.894792e-01
2.299432737395656e-13	1.347175e+00	6.734832e-01	1.347175e+00	2.472263e-11	6.611027e-01	6.889386e-01
4.087726929923942e-13	1.347174e+00	6.734829e-01	1.347174e+00	2.692850e-11	6.599817e-01	6.878607e-01
7.664315314980513e-13	1.347174e+00	6.734826e-01	1.347174e+00	3.067585e-11	6.577542e-01	6.857168e-01
1.481749208509365e-12	1.347173e+00	6.734822e-01	1.347173e+00	3.814085e-11	6.533372e-01	6.814516e-01
2.912384562531994e-12	1.347172e+00	6.734819e-01	1.347172e+00	5.298196e-11	6.446599e-01	6.730294e-01
5.773655270577252e-12	1.347171e+00	6.734816e-01	1.347171e+00	8.229997e-11	6.278775e-01	6.566170e-01
1.149619668666777e-11	1.347170e+00	6.734813e-01	1.347170e+00	1.394752e-10	5.963654e-01	6.255158e-01
2.294127951884880e-11	1.347169e+00	6.734810e-01	1.347169e+00	2.480934e-10	5.404087e-01	5.697786e-01
4.583144518321085e-11	1.347169e+00	6.734807e-01	1.347169e+00	4.444845e-10	4.508141e-01	4.798073e-01
9.161177651193497e-11	1.347168e+00	6.734806e-01	1.347168e+00	7.753401e-10	3.295186e-01	3.568087e-01
1.736200095419399e-10	1.347168e+00	6.734806e-01	1.347168e+00	1.256207e-09	2.118760e-01	2.325775e-01
2.517505216996831e-10	1.347168e+00	6.734806e-01	1.347168e+00	1.653332e-09	1.969380e-01	2.074581e-01
3.406118114759017e-10	1.347168e+00	6.734806e-01	1.347168e+00	2.137987e-09	2.898430e-01	2.917500e-01
4.376659299546571e-10	1.347168e+00	6.734806e-01	1.347168e+00	2.810228e-09	4.472186e-01	4.469202e-01
5.554995872570758e-10	1.347168e+00	6.734806e-01	1.347168e+00	3.790257e-09	6.184946e-01	6.184089e-01
6.000000000000000e-10	1.347181e+00	6.734875e-01	1.347181e+00	4.191094e-09	6.596125e-01	6.597638e-01
6.077641421660268e-10	1.347173e+00	6.734830e-01	1.347173e+00	4.260647e-09	6.557686e-01	6.558810e-01
6.232924264980805e-10	1.347168e+00	6.734806e-01	1.347168e+00	4.397544e-09	6.519657e-01	6.520439e-01
6.543489951621879e-10	1.347168e+00	6.734806e-01	1.347168e+00	4.662358e-09	6.505844e-01	6.506374e-01
7.164621324904025e-10	1.347168e+00	6.734806e-01	1.347168e+00	5.165717e-09	6.514037e-01	6.514491e-01
7.971991905357502e-10	1.347168e+00	6.734806e-01	1.347168e+00	5.768324e-09	6.526123e-01	6.526564e-01
9.586733066264456e-10	1.347168e+00	6.734806e-01	1.347168e+00	6.839609e-09	6.547860e-01	6.548250e-01
1.183282681626446e-09	1.347168e+00	6.734806e-01	1.347168e+00	8.141676e-09	6.575077e-01	6.575416e-01
1.407892056626445e-09	1.347168e+00	6.734806e-01	1.347168e+00	9.276691e-09	6.598874e-01	6.599167e-01
1.632501431626445e-09	1.347168e+00	6.734806e-01	1.347168e+00	1.028868e-08	6.619471e-01	6.619724e-01
1.857110806626445e-09	1.347168e+00	6.734806e-01	1.347168e+00	1.122303e-08	6.637282e-01	6.637501e-01
2.081720181626445e-09	1.347168e+00	6.734806e-01	1.347168e+00	1.211144e-08	6.652691e-01	6.652879e-01
2.306329556626445e-09	1.347168e+00	6.734806e-01	1.347168e+00	1.297619e-08	6.666006e-01	6.666167e-01
2.530938931626445e-09	1.347168e+00	6.734806e-01	1.347168e+00	1.383290e-08	6.677516e-01	6.677654e-01
2.755548306626445e-09	1.347168e+00	6.734806e-01	1.347168e+00	1.469250e-08	6.687455e-01	6.687574e-01
2.980157681626445e-09	1.347168e+00	6.734806e-01	1.347168e+00	1.556242e-08	6.696041e-01	6.696144e-01
3.204767056626445e-09	1.347168e+00	6.734806e-01	1.347168e+00	1.644758e-08	6.703452e-01	6.703540e-01
3.429376431626445e-09	1.347168e+00	6.734806e-01	1.347168e+00	1.735098e-08	6.709851e-01	6.709927e-01
3.653985806626445e-09	1.347168e+00	6.734806e-01	1.347168e+00	1.827430e-08	6.715372e-01	6.715437e-01
3.878595181626445e-09	1.347168e+00	6.734806e-01	1.347168e+00	1.921821e-08	6.720137e-01	6.720193e-01
4.103204556626445e-09	1.347168e+00	6.734806e-01	1.347168e+00	2.018266e-08	6.724247e-01	6.724296e-01
4.327813931626445e-09	1.347168e+00	6.734806e-01	1.347168e+00	2.116714e-08	6.727794e-01	6.727835e-01
4.552423306626446e-09	1.347168e+00	6.734805e-01	1.347168e+00	2.217078e-08	6.730852e-01	6.730887e-01
4.777032681626446e-09	1.347168e+00	6.734805e-01	1.347168e+00	2.319250e-08	6.733490e-01	6.733520e-01
5.001642056626446e-09	1.347168e+00	6.734805e-01	1.347168e+00	2.423111e-08	6.735764e-01	6.735790e-01
5.226251431626447e-09	1.347168e+00	6.734805e-01	1.347168e+00	2.528533e-08	6.737726e-01	6.737748e-01
5.450860806626447e-09	1.347168e+00	6.734805e-01	1.347168e+00	2.635391e-08	6.739417e-01	6.739436e-01
5.675470181626447e-09	1.347168e+00	6.734805e-01	1.347168e+00	2.743558e-08	6.740875e-01	6.740892e-01
5.900079556626448e-09	1.347168e+00	6.734805e-01	1.347168e+00	2.852916e-08	6.742133e-01	6.742147e-01
6.124688931626448e-09	1.347168e+00	6.734805e-01	1.347168e+00	2.963351e-08	6.743217e-01	6.743228e-01
6.349298306626448e-09	1.347168e+00	6.734805e-01	1.347168e+00	3.074755e-08	6.744151e-01	6.744162e-01
6.573907681626449e-09	1.347168e+00	6.734805e-01	1.347168e+00	3.187029e-08	6.744957e-01	6.744966e-01
6.798517056626449e-09	1.347168e+00	6.734805e-01	1.347168e+00	3.300082e-08	6.745651e-01	6.745659e-01
7.023126431626449e-09	1.347168e+00	6.734805e-01	1.347168e+00	3.413831e-08	6.746250e-01	6.746256e-01
7.247735806626450e-09	1.347168e+00	6.734805e-01	1.347168e+00	3.528199e-08	6.746766e-01	6.746771e-01
7.472345181626449e-09	1.347168e+00	6.734805e-01	1.347168e+00	3.643117e-08	6.747211e-01	6.747216e-01
7.696954556626449e-09	1.347167e+00	6.734805e-01	1.347167e+00	3.758523e-08	6.747594e-01	6.747599e-01
7.921563931626448e-09	1.347167e+00	6.734805e-01	1.347167e+00	3.874361e-08	6.747925e-01	6.747928e-01
8.146173306626448e-09	1.347167e+00	6.734805e-01	1.347167e+00	3.990582e-08	6.748210e-01	6.748213e-01
8.370782681626447e-09	1.347167e+00	6.734805e-01	1.347167e+00	4.107139e-08	6.748456e-01	6.748458e-01
8.595392056626447e-09	1.347167e+00	6.734804e-01	1.347167e+00	4.223993e-08	6.748667e-01	6.748669e-01
8.820001431626446e-09	1.347167e+00	6.734804e-01	1.347167e+00	4.341108e-08	6.748850e-01	6.748852e-01
9.044610806626446e-09	1.347167e+00	6.734804e-01	1.347167e+00	4.458454e-08	6.749007e-01	6.749009e-01
9.269220181626445e-09	1.347167e+00	6.734804e-01	1.347167e+00	4.576001e-08	6.749143e-01	6.749145e-01
9.493829556626445e-09	1.347167e+00	6.734804e-01	1.347167e+00	4.693726e-08	6.749260e-01	6.749261e-01
9.718438931626444e-09	1.347167e+00	6.734804e-01	1.347167e+00	4.811606e-08	6.749361e-01	6.749362e-01
9.943048306626444e-09	1.347167e+00	6.734804e-01	1.347167e+00	4.929622e-08	6.749448e-01	6.749449e-01
1.016765768162644e-08	1.347167e+00	6.734804e-01	1.347167e+00	5.047756e-08	6.749523e-01	6.749524e-01
1.039226705662644e-08	1.347167e+00	6.734804e-01	1.347167e+00	5.165996e-08	6.749587e-01	6.749588e-01
1.061687643162644e-08	1.347167e+00	6.734804e-01	1.347167e+00	5.284326e-08	6.749643e-01	6.749644e-01
1.084148580662644e-08	1.347167e+00	6.734803e-01	1.347167e+00	5.402735e-08	6.749691e-01	6.749692e-01
1.129070455662644e-08	1.347167e+00	6.734803e-01	1.347167e+00	5.639754e-08	6.749768e-01	6.749769e-01
1.173992330662644e-08	1.347167e+00	6.734803e-01	1.347167e+00	5.876984e-08	6.749826e-01	6.749826e-01
1.218914205662644e-08	1.347167e+00	6.734803e-01	1.347167e+00	6.114375e-08	6.749869e-01	6.749869e-01
1.286297018162644e-08	1.347167e+00	6.734803e-01	1.347167e+00	6.470680e-08	6.749914e-01	6.749914e-01
1.331218893162644e-08	1.347167e+00	6.734803e-01	1.347167e+00	6.708348e-08	6.749932e-01	6.749932e-01
1.376140768162644e-08	1.347167e+00	6.734803e-01	1.347167e+00	6.946049e-08	6.749947e-01	6.749947e-01
1.421062643162643e-08	1.347167e+00	6.734803e-01	1.347167e+00	7.183781e-08	6.749960e-01	6.749960e-01
1.465984518162643e-08	1.347167e+00	6.734803e-01	1.347167e+00	7.421546e-08	6.749970e-01	6.749970e-01
1.510906393162643e-08	1.347167e+00	6.734803e-01	1.347167e+00	7.659344e-08	6.749978e-01	6.749978e-01
1.555828268162643e-08	1.347167e+00	6.734802e-01	1.347167e+00	7.897174e-08	6.749982e-01	6.749982e-01
1.600750143162643e-08	1.347167e+00	6.734802e-01	1.347167e+00	8.135036e-08	6.749984e-01	6.749984e-01
1.735515768162643e-08	1.347167e+00	6.734802e-01	1.347167e+00	8.848643e-08	6.749989e-01	6.749989e-01
1.870281393162642e-08	1.347166e+00	6.734801e-01	1.347166e+00	9.562261e-08	6.749992e-01	6.749992e-01
2.005047018162642e-08	1.347166e+00	6.734801e-01	1.347166e+00	1.027589e-07	6.749995e-01	6.749995e-01
2.139812643162642e-08	1.347166e+00	6.734801e-01	1.347166e+00	1.098953e-07	6.749997e-01	6.749997e-01
2.274578268162642e-08	1.347166e+00	6.734800e-01	1.347166e+00	1.170318e-07	6.749998e-01	6.749998e-01
2.409343893162642e-08	1.347166e+00	6.734800e-01	1.347166e+00	1.241683e-07	6.749998e-01	6.749998e-01
2.544109518162641e-08	1.347166e+00	6.734800e-01	1.347166e+00	1.313050e-07	6.749997e-01	6.749997e-01
2.560000000000000e-08	1.347166e+00	6.734799e-01	1.347166e+00	1.321465e-07	6.749995e-01	6.749995e-01
2.561266829802043e-08	1.347166e+00	6.734799e-01	1.347166e+00	1.322126e-07	6.698823e-01	6.699110e-01
2.563800489406130e-08	1.347166e+00	6.734799e-01	1.347166e+00	1.323435e-07	6.622396e-01	6.622829e-01
2.568867808614302e-08	1.347166e+00	6.734799e-01	1.347166e+00	1.326031e-07	6.557408e-01	6.557227e-01
2.576004016308078e-08	1.347166e+00	6.734799e-01	1.347166e+00	1.329679e-07	6.541114e-01	6.540476e-01
2.584844205777713e-08	1.347166e+00	6.734799e-01	1.347166e+00	1.334187e-07	6.492621e-01	6.493577e-01
2.593958178798835e-08	1.347166e+00	6.734799e-01	1.347166e+00	1.338815e-07	6.446176e-01	6.448146e-01
2.612186124841079e-08	1.347166e+00	6.734799e-01	1.347166e+00	1.348083e-07	6.444088e-01	6.444774e-01
2.620000000000000e-08	1.347166e+00	6.734799e-01	1.347166e+00	1.352079e-07	6.456673e-01	6.456701e-01
2.622246093750000e-08	1.347166e+00	6.734799e-01	1.347166e+00	1.353247e-07	6.489763e-01	6.488754e-01
2.626738281250000e-08	1.347166e+00	6.734799e-01	1.347166e+00	1.355600e-07	6.540390e-01	6.538119e-01
2.635722656250000e-08	1.347166e+00	6.734799e-01	1.347166e+00	1.360351e-07	6.595725e-01	6.592879e-01
2.653691406250000e-08	1.347166e+00	6.734799e-01	1.347166e+00	1.369919e-07	6.635514e-01	6.633480e-01
2.676152343750000e-08	1.347166e+00	6.734799e-01	1.347166e+00	1.381901e-07	6.645836e-01	6.644845e-01
2.698613281250000e-08	1.347166e+00	6.734799e-01	1.347166e+00	1.393869e-07	6.646095e-01	6.645520e-01
2.990605468749999e-08	1.347165e+00	6.734798e-01	1.347165e+00	1.548269e-07	6.646000e-01	6.645511e-01
3.000000000000000e-08	1.347165e+00	6.734798e-01	1.347165e+00	1.553222e-07	6.645999e-01	6.645511e-01
3.000331879989357e-08	1.347165e+00	6.734798e-01	1.347165e+00	1.553397e-07	6.645999e-01	6.645511e-01
3.000995639968070e-08	1.347165e+00	6.734798e-01	1.347165e+00	1.553747e-07	6.645998e-01	6.645511e-01
3.002323159925495e-08	1.347166e+00	6.734798e-01	1.347166e+00	1.554446e-07	6.645998e-01	6.645511e-01
3.004978199840346e-08	1.347169e+00	6.734798e-01	1.347169e+00	1.555846e-07	6.646000e-01	6.645511e-01
3.010288279670048e-08	1.347180e+00	6.734798e-01	1.347180e+00	1.558645e-07	6.646007e-01	6.645519e-01
3.020908439329452e-08	1.347220e+00	6.734798e-01	1.347220e+00	1.564243e-07	6.646047e-01	6.645558e-01
3.039660527292636e-08	1.347332e+00	6.734798e-01	1.347332e+00	1.574127e-07	6.646183e-01	6.645690e-01
3.050000000000000e-08	1.347412e+00	6.734798e-01	1.347412e+00	1.579578e-07	6.646292e-01	6.645797e-01
3.056738281250000e-08	1.347473e+00	6.734798e-01	1.347473e+00	1.583130e-07	6.646402e-01	6.645907e-01
3.065722656250000e-08	1.347553e+00	6.734798e-01	1.347553e+00	1.587866e-07	6.646572e-01	6.646074e-01
3.083691406250000e-08	1.347407e+00	6.734798e-01	1.347406e+00	1.597345e-07	6.647192e-01	6.646684e-01
3.106152343750000e-08	1.341103e+00	6.734798e-01	1.341099e+00	1.609333e-07	6.653396e-01	6.652761e-01
3.128613281250001e-08	1.311262e+00	6.734798e-01	1.311249e+00	1.621837e-07	6.684083e-01	6.682850e-01
3.151074218750001e-08	1.238748e+00	6.734798e-01	1.238713e+00	1.635208e-07	6.768346e-01	6.765708e-01
3.173535156250001e-08	1.124788e+00	6.734798e-01	1.124721e+00	1.649295e-07	6.918885e-01	6.914259e-01
3.195996093750001e-08	9.909090e-01	6.734798e-01	9.908011e-01	1.663595e-07	7.114515e-01	7.107896e-01
3.200000000000000e-08	9.671224e-01	6.734797e-01	9.670063e-01	1.666111e-07	7.152323e-01	7.145419e-01
3.201091629633411e-08	9.611461e-01	6.734797e-01	9.610275e-01	1.666783e-07	7.182839e-01	7.175155e-01
3.203274888900232e-08	9.495341e-01	6.734797e-01	9.494104e-01	1.668123e-07	7.238569e-01	7.229666e-01
3.207641407433874e-08	9.280235e-01	6.734797e-01	9.278886e-01	1.670778e-07	7.330406e-01	7.320160e-01
3.216374444501157e-08	8.918868e-01	6.734797e-01	8.917251e-01	1.675970e-07	7.473322e-01	7.462271e-01
3.233840518635724e-08	8.375497e-01	6.734797e-01	8.373283e-01	1.685863e-07	7.460903e-01	7.452850e-01
3.250000000000000e-08	8.008171e-01	6.734797e-01	8.005406e-01	1.694437e-07	6.951129e-01	6.951840e-01
3.251826886846587e-08	7.982845e-01	6.734797e-01	7.980037e-01	1.695266e-07	6.872073e-01	6.872588e-01
3.255480660539762e-08	7.935050e-01	6.734797e-01	7.932173e-01	1.696919e-07	6.803011e-01	6.803148e-01
3.262788207926110e-08	7.849826e-01	6.734797e-01	7.846859e-01	1.700228e-07	6.784558e-01	6.784483e-01
3.272863493688204e-08	7.750624e-01	6.734797e-01	7.747615e-01	1.704828e-07	6.784875e-01	6.784827e-01
3.286509842499918e-08	7.644075e-01	6.734797e-01	7.641115e-01	1.711158e-07	6.782034e-01	6.781986e-01
3.308970779999918e-08	7.509159e-01	6.734797e-01	7.506409e-01	1.721800e-07	6.778960e-01	6.778920e-01
3.331431717499919e-08	7.404709e-01	6.734797e-01	7.402228e-01	1.732703e-07	6.775715e-01	6.775679e-01
3.353892654999919e-08	7.321746e-01	6.734797e-01	7.319543e-01	1.743867e-07	6.772833e-01	6.772802e-01
3.376353592499919e-08	7.252292e-01	6.734797e-01	7.250350e-01	1.755255e-07	6.770179e-01	6.770152e-01
3.398814529999919e-08	7.190754e-01	6.734797e-01	7.189052e-01	1.766789e-07	6.767156e-01	6.767157e-01
3.400000000000000e-08	7.187742e-01	6.734797e-01	7.186052e-01	1.767402e-07	6.767350e-01	6.767313e-01
3.400097835661940e-08	7.187504e-01	6.734797e-01	7.185814e-01	1.812416e-07	6.767365e-01	6.767330e-01
3.400293506985820e-08	7.187027e-01	6.734797e-01	7.185339e-01	2.003438e-07	6.767390e-01	6.767356e-01
3.400684849633580e-08	7.186074e-01	6.734798e-01	7.184390e-01	2.878047e-07	6.767418e-01	6.767389e-01
3.401467534929100e-08	7.184178e-01	6.734800e-01	7.182502e-01	6.632379e-07	6.767426e-01	6.767399e-01
3.403032905520140e-08	7.180419e-01	6.734811e-01	7.178758e-01	2.209722e-06	6.767348e-01	6.767324e-01
3.406163646702219e-08	7.173027e-01	6.734852e-01	7.171395e-01	8.458319e-06	6.767089e-01	6.767067e-01
3.412425129066378e-08	7.158734e-01	6.735014e-01	7.157159e-01	3.365954e-05	6.766527e-01	6.766505e-01
3.424948093794695e-08	7.131824e-01	6.735629e-01	7.130353e-01	1.390855e-04	6.765454e-01	6.765433e-01
3.445631021240817e-08	7.090118e-01	6.737158e-01	7.088795e-01	4.371957e-04	6.763787e-01	6.763768e-01
3.450000000000000e-08	7.081783e-01	6.737590e-01	7.080485e-01	5.431379e-04	6.763454e-01	6.763434e-01
3.450386008733716e-08	7.081079e-01	6.737637e-01	7.079781e-01	5.616843e-04	6.735948e-01	6.736261e-01
3.451158026201147e-08	7.079667e-01	6.737733e-01	7.078370e-01	6.061386e-04	6.691313e-01	6.691895e-01
3.452702061136008e-08	7.076804e-01	6.737927e-01	7.075500e-01	7.539715e-04	6.631297e-01	6.631838e-01
3.455790131005731e-08	7.070866e-01	6.738330e-01	7.069445e-01	1.561592e-03	6.577854e-01	6.577711e-01
3.461675439550965e-08	7.058978e-01	6.739130e-01	7.056661e-01	5.582255e-03	6.577455e-01	6.574814e-01
3.468168067327946e-08	7.045282e-01	6.740036e-01	7.039737e-01	1.564802e-02	6.590745e-01	6.583358e-01
3.476934085047061e-08	7.026335e-01	6.741254e-01	7.009931e-01	4.051637e-02	6.593940e-01	6.571638e-01
3.487512037285611e-08	7.003639e-01	6.742761e-01	6.961231e-01	8.568708e-02	6.615795e-01	6.557727e-01
3.500000000000000e-08	6.977476e-01	6.744672e-01	6.890322e-01	1.520786e-01	6.659338e-01	6.541311e-01
3.502115590447710e-08	6.973436e-01	6.745250e-01	6.875106e-01	1.656712e-01	6.697099e-01	6.564112e-01
3.506346771343130e-08	6.965820e-01	6.747262e-01	6.843513e-01	1.933688e-01	6.755346e-01	6.591740e-01
3.514809133133971e-08	6.952851e-01	6.755852e-01	6.776667e-01	2.489354e-01	6.819861e-01	6.592233e-01
3.531733856715651e-08	6.933349e-01	6.783357e-01	6.640051e-01	3.515516e-01	6.866305e-01	6.509393e-01
3.554194794215651e-08	6.915781e-01	6.823909e-01	6.471311e-01	4.606256e-01	6.878514e-01	6.366978e-01
3.576655731715651e-08	6.904642e-01	6.856349e-01	6.334401e-01	5.336145e-01	6.879766e-01	6.250993e-01
3.599116669215651e-08	6.897824e-01	6.875903e-01	6.238953e-01	5.746495e-01	6.882338e-01	6.180063e-01
3.621577606715652e-08	6.893913e-01	6.885686e-01	6.180425e-01	5.951984e-01	6.885388e-01	6.143619e-01
3.644038544215652e-08	6.891974e-01	6.890072e-01	6.148044e-01	6.047055e-01	6.887796e-01	6.127151e-01
3.666499481715652e-08	6.891236e-01	6.891918e-01	6.131556e-01	6.088765e-01	6.889423e-01	6.120513e-01
3.688960419215653e-08	6.891115e-01	6.892731e-01	6.123323e-01	6.107434e-01	6.890516e-01	6.118032e-01
3.700000000000000e-08	6.891185e-01	6.892948e-01	6.121073e-01	6.112251e-01	6.890920e-01	6.117559e-01
3.700050000000000e-08	6.891186e-01	6.892948e-01	6.121067e-01	6.112264e-01	6.891100e-01	6.118306e-01
3.700150000000000e-08	6.891187e-01	6.892949e-01	6.121055e-01	6.112289e-01	6.891855e-01	6.121234e-01
3.700350000000000e-08	6.891189e-01	6.892952e-01	6.121031e-01	6.112340e-01	6.895915e-01	6.136552e-01
3.700500000000000e-08	6.891191e-01	6.892954e-01	6.121013e-01	6.112378e-01	6.902008e-01	6.159574e-01
3.700521156149471e-08	6.891191e-01	6.892954e-01	6.121011e-01	6.112383e-01	6.902801e-01	6.161881e-01
3.700563468448412e-08	6.891192e-01	6.892955e-01	6.121005e-01	6.112394e-01	6.904013e-01	6.164513e-01
3.700648093046296e-08	6.891193e-01	6.892956e-01	6.120996e-01	6.112415e-01	6.905085e-01	6.163508e-01
3.700778598901222e-08	6.891195e-01	6.892958e-01	6.120981e-01	6.112448e-01	6.904660e-01	6.153814e-01
3.700923578970682e-08	6.891196e-01	6.892959e-01	6.120964e-01	6.112485e-01	6.902401e-01	6.138305e-01
3.701126843588327e-08	6.891199e-01	6.892962e-01	6.120942e-01	6.112536e-01	6.897503e-01	6.115543e-01
3.701416389513626e-08	6.891203e-01	6.892967e-01	6.120909e-01	6.112608e-01	6.888934e-01	6.087758e-01
3.701995481364226e-08	6.891210e-01	6.892973e-01	6.120840e-01	6.112744e-01	6.868873e-01	6.046908e-01
3.703153665065424e-08	6.891208e-01	6.892971e-01	6.120680e-01	6.112979e-01	6.820948e-01	5.996492e-01
3.705000000000000e-08	6.891176e-01	6.892939e-01	6.120381e-01	6.113295e-01	6.734042e-01	5.953360e-01
3.705197305344039e-08	6.891164e-01	6.892928e-01	6.120341e-01	6.113317e-01	6.724457e-01	5.959237e-01
3.705591916032116e-08	6.891136e-01	6.892901e-01	6.120256e-01	6.113356e-01	6.706067e-01	5.971447e-01
3.706381137408271e-08	6.891062e-01	6.892829e-01	6.120079e-01	6.113421e-01	6.671094e-01	5.992791e-01
3.707152384988080e-08	6.890959e-01	6.892728e-01	6.119893e-01	6.113465e-01	6.639034e-01	6.006636e-01
3.708373486328956e-08	6.890700e-01	6.892478e-01	6.119576e-01	6.113496e-01	6.594142e-01	6.015997e-01
3.710815689010706e-08	6.889843e-01	6.891647e-01	6.118885e-01	6.113451e-01	6.524991e-01	6.016808e-01
