time	V(bit0)	V(bit1)	V(bit2)	V(bit3)	V(bitline0)	V(bitline1)
0.000000000000000e+00	0.000000e+00	0.000000e+00	0.000000e+00	0.000000e+00	0.000000e+00	0.000000e+00
2.246093783376700e-15	1.143741e+00	5.717945e-01	1.143741e+00	1.143741e+00	4.955990e-01	4.955357e-01
3.218913642575732e-15	1.347276e+00	6.735438e-01	1.347276e+00	1.347276e+00	5.809625e-01	5.828838e-01
5.164553360973798e-15	1.347183e+00	6.734883e-01	1.347183e+00	1.347183e+00	5.838588e-01	5.906592e-01
9.055832797769929e-15	1.347174e+00	6.734821e-01	1.347174e+00	1.347174e+00	6.075029e-01	6.195069e-01
1.683839167136219e-14	1.347176e+00	6.734834e-01	1.347176e+00	1.347176e+00	6.397364e-01	6.588229e-01
2.450982588030389e-14	1.347175e+00	6.734829e-01	1.347175e+00	1.347175e+00	6.528638e-01	6.762043e-01
3.985269429818729e-14	1.347176e+00	6.734834e-01	1.347176e+00	1.347176e+00	6.600122e-01	6.864743e-01
6.102772668663362e-14	1.347175e+00	6.734832e-01	1.347175e+00	1.347175e+00	6.621144e-01	6.896937e-01
9.582120929968234e-14	1.347176e+00	6.734834e-01	1.347176e+00	1.347176e+00	6.620585e-01	6.898227e-01
1.405285641127378e-13	1.347175e+00	6.734833e-01	1.347175e+00	1.347175e+00	6.616734e-01	6.894792e-01
2.299432737388488e-13	1.347175e+00	6.734832e-01	1.347175e+00	1.347175e+00	6.611027e-01	6.889386e-01
4.087726929910706e-13	1.347174e+00	6.734829e-01	1.347174e+00	1.347174e+00	6.599817e-01	6.878607e-01
7.664315314955144e-13	1.347174e+00	6.734826e-01	1.347174e+00	1.347174e+00	6.577542e-01	6.857168e-01
1.481749208504402e-12	1.347173e+00	6.734822e-01	1.347173e+00	1.347173e+00	6.533372e-01	6.814516e-01
2.912384562522177e-12	1.347172e+00	6.734819e-01	1.347172e+00	1.347172e+00	6.446599e-01	6.730294e-01
5.773655270557727e-12	1.347171e+00	6.734816e-01	1.347171e+00	1.347171e+00	6.278775e-01	6.566170e-01
1.149619668662883e-11	1.347170e+00	6.734813e-01	1.347170e+00	1.347170e+00	5.963654e-01	6.255158e-01
2.294127951877103e-11	1.347169e+00	6.734810e-01	1.347169e+00	1.347169e+00	5.404087e-01	5.697786e-01
4.583144518305543e-11	1.347169e+00	6.734807e-01	1.347169e+00	1.347169e+00	4.508141e-01	4.798073e-01
9.161177651162424e-11	1.347168e+00	6.734806e-01	1.347168e+00	1.347168e+00	3.295186e-01	3.568087e-01
1.736200093849324e-10	1.347168e+00	6.734806e-01	1.347168e+00	1.347168e+00	2.118760e-01	2.325775e-01
2.517505214751732e-10	1.347168e+00	6.734806e-01	1.347168e+00	1.347168e+00	1.969380e-01	2.074581e-01
3.406118111866927e-10	1.347168e+00	6.734806e-01	1.347168e+00	1.347168e+00	2.898430e-01	2.917500e-01
4.376659297046414e-10	1.347168e+00	6.734806e-01	1.347168e+00	1.347168e+00	4.472186e-01	4.469202e-01
5.554995430951708e-10	1.347168e+00	6.734806e-01	1.347168e+00	1.347168e+00	6.184946e-01	6.184088e-01
6.000000000000000e-10	1.347181e+00	6.734875e-01	1.347181e+00	1.347181e+00	6.596125e-01	6.597638e-01
6.077641477113377e-10	1.347173e+00	6.734830e-01	1.347173e+00	1.347173e+00	6.557686e-01	6.558810e-01
6.232924431340131e-10	1.347168e+00	6.734806e-01	1.347168e+00	1.347168e+00	6.519657e-01	6.520439e-01
6.543490339793638e-10	1.347168e+00	6.734806e-01	1.347168e+00	1.347168e+00	6.505844e-01	6.506374e-01
7.164622156700653e-10	1.347168e+00	6.734806e-01	1.347168e+00	1.347168e+00	6.514037e-01	6.514491e-01
7.971992959963200e-10	1.347168e+00	6.734806e-01	1.347168e+00	1.347168e+00	6.526123e-01	6.526564e-01
9.586734566488294e-10	1.347168e+00	6.734806e-01	1.347168e+00	1.347168e+00	6.547860e-01	6.548250e-01
1.183282831648830e-09	1.347168e+00	6.734806e-01	1.347168e+00	1.347168e+00	6.575077e-01	6.575416e-01
1.407892206648829e-09	1.347168e+00	6.734806e-01	1.347168e+00	1.347168e+00	6.598874e-01	6.599167e-01
1.632501581648829e-09	1.347168e+00	6.734806e-01	1.347168e+00	1.347168e+00	6.619471e-01	6.619724e-01
1.857110956648829e-09	1.347168e+00	6.734806e-01	1.347168e+00	1.347168e+00	6.637282e-01	6.637501e-01
2.081720331648829e-09	1.347168e+00	6.734806e-01	1.347168e+00	1.347168e+00	6.652691e-01	6.652879e-01
2.306329706648829e-09	1.347168e+00	6.734806e-01	1.347168e+00	1.347168e+00	6.666006e-01	6.666167e-01
2.530939081648829e-09	1.347168e+00	6.734806e-01	1.347168e+00	1.347168e+00	6.677516e-01	6.677654e-01
2.755548456648829e-09	1.347168e+00	6.734806e-01	1.347168e+00	1.347168e+00	6.687455e-01	6.687574e-01
2.980157831648829e-09	1.347168e+00	6.734806e-01	1.347168e+00	1.347168e+00	6.696041e-01	6.696144e-01
3.204767206648829e-09	1.347168e+00	6.734806e-01	1.347168e+00	1.347168e+00	6.703452e-01	6.703540e-01
3.429376581648829e-09	1.347168e+00	6.734806e-01	1.347168e+00	1.347168e+00	6.709851e-01	6.709927e-01
3.653985956648829e-09	1.347168e+00	6.734806e-01	1.347168e+00	1.347168e+00	6.715372e-01	6.715437e-01
3.878595331648829e-09	1.347168e+00	6.734806e-01	1.347168e+00	1.347168e+00	6.720137e-01	6.720193e-01
4.103204706648829e-09	1.347168e+00	6.734806e-01	1.347168e+00	1.347168e+00	6.724247e-01	6.724296e-01
4.327814081648830e-09	1.347168e+00	6.734806e-01	1.347168e+00	1.347168e+00	6.727794e-01	6.727835e-01
4.552423456648830e-09	1.347168e+00	6.734805e-01	1.347168e+00	1.347168e+00	6.730852e-01	6.730887e-01
4.777032831648830e-09	1.347168e+00	6.734805e-01	1.347168e+00	1.347168e+00	6.733490e-01	6.733520e-01
5.001642206648831e-09	1.347168e+00	6.734805e-01	1.347168e+00	1.347168e+00	6.735764e-01	6.735790e-01
5.226251581648831e-09	1.347168e+00	6.734805e-01	1.347168e+00	1.347168e+00	6.737726e-01	6.737748e-01
5.450860956648831e-09	1.347168e+00	6.734805e-01	1.347168e+00	1.347168e+00	6.739417e-01	6.739436e-01
5.675470331648832e-09	1.347168e+00	6.734805e-01	1.347168e+00	1.347168e+00	6.740875e-01	6.740892e-01
5.900079706648832e-09	1.347168e+00	6.734805e-01	1.347168e+00	1.347168e+00	6.742133e-01	6.742147e-01
6.124689081648832e-09	1.347168e+00	6.734805e-01	1.347168e+00	1.347168e+00	6.743217e-01	6.743228e-01
6.349298456648833e-09	1.347168e+00	6.734805e-01	1.347168e+00	1.347168e+00	6.744151e-01	6.744162e-01
6.573907831648833e-09	1.347168e+00	6.734805e-01	1.347168e+00	1.347168e+00	6.744957e-01	6.744966e-01
6.798517206648833e-09	1.347168e+00	6.734805e-01	1.347168e+00	1.347168e+00	6.745651e-01	6.745659e-01
7.023126581648834e-09	1.347168e+00	6.734805e-01	1.347168e+00	1.347168e+00	6.746250e-01	6.746256e-01
7.247735956648834e-09	1.347168e+00	6.734805e-01	1.347168e+00	1.347168e+00	6.746766e-01	6.746771e-01
7.472345331648833e-09	1.347168e+00	6.734805e-01	1.347168e+00	1.347168e+00	6.747211e-01	6.747216e-01
7.696954706648833e-09	1.347167e+00	6.734805e-01	1.347167e+00	1.347167e+00	6.747594e-01	6.747599e-01
7.921564081648832e-09	1.347167e+00	6.734805e-01	1.347167e+00	1.347167e+00	6.747925e-01	6.747928e-01
8.146173456648832e-09	1.347167e+00	6.734805e-01	1.347167e+00	1.347167e+00	6.748210e-01	6.748213e-01
8.370782831648831e-09	1.347167e+00	6.734805e-01	1.347167e+00	1.347167e+00	6.748456e-01	6.748458e-01
8.595392206648831e-09	1.347167e+00	6.734804e-01	1.347167e+00	1.347167e+00	6.748667e-01	6.748669e-01
8.820001581648830e-09	1.347167e+00	6.734804e-01	1.347167e+00	1.347167e+00	6.748850e-01	6.748852e-01
9.044610956648830e-09	1.347167e+00	6.734804e-01	1.347167e+00	1.347167e+00	6.749007e-01	6.749009e-01
9.269220331648829e-09	1.347167e+00	6.734804e-01	1.347167e+00	1.347167e+00	6.749143e-01	6.749145e-01
9.493829706648829e-09	1.347167e+00	6.734804e-01	1.347167e+00	1.347167e+00	6.749260e-01	6.749261e-01
9.718439081648828e-09	1.347167e+00	6.734804e-01	1.347167e+00	1.347167e+00	6.749361e-01	6.749362e-01
9.943048456648828e-09	1.347167e+00	6.734804e-01	1.347167e+00	1.347167e+00	6.749448e-01	6.749449e-01
1.016765783164883e-08	1.347167e+00	6.734804e-01	1.347167e+00	1.347167e+00	6.749523e-01	6.749524e-01
1.039226720664883e-08	1.347167e+00	6.734804e-01	1.347167e+00	1.347167e+00	6.749587e-01	6.749588e-01
1.061687658164883e-08	1.347167e+00	6.734804e-01	1.347167e+00	1.347167e+00	6.749643e-01	6.749644e-01
1.084148595664883e-08	1.347167e+00	6.734803e-01	1.347167e+00	1.347167e+00	6.749691e-01	6.749692e-01
1.129070470664882e-08	1.347167e+00	6.734803e-01	1.347167e+00	1.347167e+00	6.749768e-01	6.749769e-01
1.173992345664882e-08	1.347167e+00	6.734803e-01	1.347167e+00	1.347167e+00	6.749826e-01	6.749826e-01
1.218914220664882e-08	1.347167e+00	6.734803e-01	1.347167e+00	1.347167e+00	6.749869e-01	6.749869e-01
1.286297033164882e-08	1.347167e+00	6.734803e-01	1.347167e+00	1.347167e+00	6.749914e-01	6.749914e-01
1.331218908164882e-08	1.347167e+00	6.734803e-01	1.347167e+00	1.347167e+00	6.749932e-01	6.749932e-01
1.376140783164882e-08	1.347167e+00	6.734803e-01	1.347167e+00	1.347167e+00	6.749947e-01	6.749947e-01
1.421062658164882e-08	1.347167e+00	6.734803e-01	1.347167e+00	1.347167e+00	6.749960e-01	6.749960e-01
1.465984533164882e-08	1.347167e+00	6.734803e-01	1.347167e+00	1.347167e+00	6.749970e-01	6.749970e-01
1.510906408164882e-08	1.347167e+00	6.734803e-01	1.347167e+00	1.347167e+00	6.749978e-01	6.749978e-01
1.555828283164882e-08	1.347167e+00	6.734802e-01	1.347167e+00	1.347167e+00	6.749982e-01	6.749982e-01
1.600750158164882e-08	1.347167e+00	6.734802e-01	1.347167e+00	1.347167e+00	6.749984e-01	6.749984e-01
1.735515783164881e-08	1.347167e+00	6.734802e-01	1.347167e+00	1.347167e+00	6.749989e-01	6.749989e-01
1.870281408164881e-08	1.347166e+00	6.734801e-01	1.347166e+00	1.347166e+00	6.749992e-01	6.749992e-01
2.005047033164881e-08	1.347166e+00	6.734801e-01	1.347166e+00	1.347166e+00	6.749995e-01	6.749995e-01
2.139812658164881e-08	1.347166e+00	6.734801e-01	1.347166e+00	1.347166e+00	6.749997e-01	6.749997e-01
2.274578283164880e-08	1.347166e+00	6.734800e-01	1.347166e+00	1.347166e+00	6.749998e-01	6.749998e-01
2.409343908164880e-08	1.347166e+00	6.734800e-01	1.347166e+00	1.347166e+00	6.749998e-01	6.749998e-01
2.544109533164880e-08	1.347166e+00	6.734800e-01	1.347166e+00	1.347166e+00	6.749997e-01	6.749997e-01
2.560000000000000e-08	1.347166e+00	6.734799e-01	1.347166e+00	1.347166e+00	6.749995e-01	6.749995e-01
2.561266828754074e-08	1.347166e+00	6.734799e-01	1.347166e+00	1.347166e+00	6.698823e-01	6.699110e-01
2.563800486262221e-08	1.347166e+00	6.734799e-01	1.347166e+00	1.347166e+00	6.622396e-01	6.622829e-01
2.568867801278515e-08	1.347166e+00	6.734799e-01	1.347166e+00	1.347166e+00	6.557408e-01	6.557227e-01
2.576004010311279e-08	1.347166e+00	6.734799e-01	1.347166e+00	1.347166e+00	6.541114e-01	6.540476e-01
2.584844190777987e-08	1.347166e+00	6.734799e-01	1.347166e+00	1.347166e+00	6.492622e-01	6.493577e-01
2.593958167578620e-08	1.347166e+00	6.734799e-01	1.347166e+00	1.347166e+00	6.446176e-01	6.448146e-01
2.612186121179885e-08	1.347166e+00	6.734799e-01	1.347166e+00	1.347166e+00	6.444088e-01	6.444774e-01
2.620000000000000e-08	1.347166e+00	6.734799e-01	1.347166e+00	1.347166e+00	6.456673e-01	6.456701e-01
2.622246093750000e-08	1.347166e+00	6.734799e-01	1.347166e+00	1.347166e+00	6.489763e-01	6.488754e-01
2.626738281250000e-08	1.347166e+00	6.734799e-01	1.347166e+00	1.347166e+00	6.540390e-01	6.538119e-01
2.635722656250000e-08	1.347166e+00	6.734799e-01	1.347166e+00	1.347166e+00	6.595725e-01	6.592879e-01
2.653691406250000e-08	1.347166e+00	6.734799e-01	1.347166e+00	1.347166e+00	6.635514e-01	6.633480e-01
2.676152343750000e-08	1.347166e+00	6.734799e-01	1.347166e+00	1.347166e+00	6.645836e-01	6.644845e-01
2.698613281250000e-08	1.347166e+00	6.734799e-01	1.347166e+00	1.347166e+00	6.646095e-01	6.645520e-01
2.990605468749999e-08	1.347165e+00	6.734798e-01	1.347165e+00	1.347165e+00	6.646000e-01	6.645511e-01
3.000000000000000e-08	1.347165e+00	6.734798e-01	1.347165e+00	1.347165e+00	6.645999e-01	6.645511e-01
3.000331879989357e-08	1.347165e+00	6.734798e-01	1.347165e+00	1.347165e+00	6.645999e-01	6.645511e-01
3.000995639968070e-08	1.347165e+00	6.734798e-01	1.347165e+00	1.347165e+00	6.645998e-01	6.645511e-01
3.002323159925495e-08	1.347166e+00	6.734798e-01	1.347166e+00	1.347165e+00	6.645998e-01	6.645511e-01
3.004978199840346e-08	1.347169e+00	6.734798e-01	1.347169e+00	1.347165e+00	6.646000e-01	6.645511e-01
3.010288279670048e-08	1.347180e+00	6.734798e-01	1.347180e+00	1.347165e+00	6.646007e-01	6.645519e-01
3.020908439329452e-08	1.347220e+00	6.734798e-01	1.347220e+00	1.347165e+00	6.646047e-01	6.645558e-01
3.039660527292674e-08	1.347332e+00	6.734798e-01	1.347332e+00	1.347165e+00	6.646183e-01	6.645690e-01
3.050000000000000e-08	1.347412e+00	6.734798e-01	1.347412e+00	1.347165e+00	6.646292e-01	6.645798e-01
3.056738281250000e-08	1.347473e+00	6.734798e-01	1.347473e+00	1.347165e+00	6.646402e-01	6.645907e-01
3.065722656250000e-08	1.347553e+00	6.734798e-01	1.347553e+00	1.347165e+00	6.646572e-01	6.646074e-01
3.083691406250000e-08	1.347407e+00	6.734798e-01	1.347406e+00	1.347165e+00	6.647192e-01	6.646684e-01
3.106152343750000e-08	1.341103e+00	6.734798e-01	1.341099e+00	1.347165e+00	6.653396e-01	6.652761e-01
3.128613281250001e-08	1.311262e+00	6.734798e-01	1.311249e+00	1.347165e+00	6.684083e-01	6.682850e-01
3.151074218750001e-08	1.238748e+00	6.734798e-01	1.238713e+00	1.347165e+00	6.768346e-01	6.765708e-01
3.173535156250001e-08	1.124788e+00	6.734798e-01	1.124721e+00	1.347165e+00	6.918885e-01	6.914259e-01
3.195996093750001e-08	9.909090e-01	6.734798e-01	9.908011e-01	1.347165e+00	7.114515e-01	7.107896e-01
3.200000000000000e-08	9.671224e-01	6.734797e-01	9.670063e-01	1.347165e+00	7.152323e-01	7.145419e-01
3.201091629633582e-08	9.611461e-01	6.734797e-01	9.610275e-01	1.347165e+00	7.182839e-01	7.175155e-01
3.203274888900746e-08	9.495341e-01	6.734797e-01	9.494104e-01	1.347165e+00	7.238569e-01	7.229666e-01
3.207641407435073e-08	9.280236e-01	6.734797e-01	9.278886e-01	1.347165e+00	7.330406e-01	7.320160e-01
3.216374444503729e-08	8.918868e-01	6.734797e-01	8.917251e-01	1.347165e+00	7.473323e-01	7.462271e-01
3.233840518641038e-08	8.375497e-01	6.734797e-01	8.373283e-01	1.347165e+00	7.460903e-01	7.452850e-01
3.250000000000000e-08	8.008171e-01	6.734797e-01	8.005406e-01	1.347165e+00	6.951129e-01	6.951840e-01
3.251826886846553e-08	7.982845e-01	6.734797e-01	7.980037e-01	1.347165e+00	6.872073e-01	6.872588e-01
3.255480660539658e-08	7.935050e-01	6.734797e-01	7.932173e-01	1.347165e+00	6.803011e-01	6.803148e-01
3.262788207925869e-08	7.849826e-01	6.734797e-01	7.846859e-01	1.347165e+00	6.784558e-01	6.784483e-01
3.272863493635490e-08	7.750624e-01	6.734797e-01	7.747615e-01	1.347165e+00	6.784875e-01	6.784827e-01
3.286509842390330e-08	7.644075e-01	6.734797e-01	7.641115e-01	1.347165e+00	6.782034e-01	6.781986e-01
3.308970779890331e-08	7.509159e-01	6.734797e-01	7.506409e-01	1.347165e+00	6.778960e-01	6.778920e-01
3.331431717390331e-08	7.404709e-01	6.734797e-01	7.402228e-01	1.347165e+00	6.775715e-01	6.775679e-01
3.353892654890331e-08	7.321746e-01	6.734797e-01	7.319543e-01	1.347165e+00	6.772833e-01	6.772802e-01
3.376353592390332e-08	7.252292e-01	6.734797e-01	7.250350e-01	1.347165e+00	6.770179e-01	6.770152e-01
3.398814529890332e-08	7.190754e-01	6.734797e-01	7.189052e-01	1.347165e+00	6.767156e-01	6.767157e-01
3.400000000000000e-08	7.187742e-01	6.734797e-01	7.186052e-01	1.347165e+00	6.767350e-01	6.767313e-01
3.400097835557269e-08	7.187504e-01	6.734797e-01	7.185814e-01	1.347165e+00	6.767365e-01	6.767330e-01
3.400293506671807e-08	7.187027e-01	6.734797e-01	7.185339e-01	1.347165e+00	6.767390e-01	6.767356e-01
3.400684848900884e-08	7.186074e-01	6.734798e-01	7.184390e-01	1.347165e+00	6.767418e-01	6.767389e-01
3.401467533359036e-08	7.184178e-01	6.734800e-01	7.182502e-01	1.347165e+00	6.767426e-01	6.767399e-01
3.403032902275341e-08	7.180419e-01	6.734811e-01	7.178758e-01	1.347166e+00	6.767348e-01	6.767324e-01
3.406163640107951e-08	7.173027e-01	6.734852e-01	7.171395e-01	1.347170e+00	6.767089e-01	6.767067e-01
3.412425115773171e-08	7.158734e-01	6.735014e-01	7.157159e-01	1.347185e+00	6.766527e-01	6.766505e-01
3.424948067103612e-08	7.131824e-01	6.735625e-01	7.130356e-01	1.347241e+00	6.765454e-01	6.765434e-01
3.445631221229646e-08	7.090116e-01	6.737131e-01	7.088814e-01	1.347375e+00	6.763788e-01	6.763771e-01
3.450000000000000e-08	7.081782e-01	6.737558e-01	7.080513e-01	1.347410e+00	6.763456e-01	6.763438e-01
3.450385994607586e-08	7.081078e-01	6.737605e-01	7.079812e-01	1.347414e+00	6.735951e-01	6.736267e-01
3.451157983822756e-08	7.079666e-01	6.737701e-01	7.078406e-01	1.347421e+00	6.691317e-01	6.691902e-01
3.452701962253097e-08	7.076803e-01	6.737896e-01	7.075554e-01	1.347436e+00	6.631305e-01	6.631855e-01
3.455789919113778e-08	7.070865e-01	6.738299e-01	7.069639e-01	1.347464e+00	6.577901e-01	6.577887e-01
3.461675290885804e-08	7.058977e-01	6.739098e-01	7.057790e-01	1.347517e+00	6.577763e-01	6.576390e-01
3.468168073369688e-08	7.045287e-01	6.740004e-01	7.044129e-01	1.347574e+00	6.591848e-01	6.590180e-01
3.476932278631521e-08	7.026376e-01	6.741222e-01	7.025242e-01	1.347649e+00	6.597397e-01	6.595927e-01
3.487508204449810e-08	7.003803e-01	6.742728e-01	7.002684e-01	1.347724e+00	6.623874e-01	6.621820e-01
3.500000000000000e-08	6.977882e-01	6.744643e-01	6.976776e-01	1.347779e+00	6.674178e-01	6.671164e-01
3.502115185163658e-08	6.973926e-01	6.745223e-01	6.972832e-01	1.347735e+00	6.713095e-01	6.709040e-01
3.506345555490974e-08	6.966506e-01	6.747253e-01	6.965532e-01	1.347358e+00	6.773621e-01	6.768503e-01
3.514806296145605e-08	6.954063e-01	6.755998e-01	6.954949e-01	1.343215e+00	6.842433e-01	6.839588e-01
3.531727777454868e-08	6.936032e-01	6.784382e-01	6.952448e-01	1.316738e+00	6.896421e-01	6.915780e-01
3.554188714954868e-08	6.921036e-01	6.827185e-01	6.991030e-01	1.243119e+00	6.916735e-01	7.006070e-01
3.576649652454869e-08	6.913010e-01	6.862901e-01	7.082241e-01	1.131673e+00	6.923649e-01	7.133617e-01
3.599110589954869e-08	6.909603e-01	6.886265e-01	7.215465e-01	1.007638e+00	6.928418e-01	7.293792e-01
3.621571527454869e-08	6.909057e-01	6.899775e-01	7.359364e-01	9.044358e-01	6.929320e-01	7.446479e-01
3.644032464954870e-08	6.910071e-01	6.907400e-01	7.482599e-01	8.371885e-01	6.926267e-01	7.559223e-01
3.666493402454870e-08	6.911597e-01	6.911764e-01	7.570305e-01	8.006334e-01	6.921858e-01	7.626263e-01
3.688954339954870e-08	6.913051e-01	6.914361e-01	7.627237e-01	7.820028e-01	6.918183e-01	7.661887e-01
3.700000000000000e-08	6.913661e-01	6.915202e-01	7.646150e-01	7.768368e-01	6.916910e-01	7.671787e-01
3.700050000000000e-08	6.913664e-01	6.915204e-01	7.646210e-01	7.768224e-01	6.917089e-01	7.672580e-01
3.700150000000000e-08	6.913669e-01	6.915209e-01	7.646330e-01	7.767937e-01	6.917842e-01	7.675623e-01
3.700350000000000e-08	6.913677e-01	6.915220e-01	7.646569e-01	7.767367e-01	6.921977e-01	7.691602e-01
3.700500000000000e-08	6.913685e-01	6.915228e-01	7.646748e-01	7.766941e-01	6.928259e-01	7.715805e-01
3.700521156858177e-08	6.913686e-01	6.915229e-01	7.646773e-01	7.766881e-01	6.929072e-01	7.718287e-01
3.700563470574530e-08	6.913688e-01	6.915231e-01	7.646824e-01	7.766761e-01	6.930299e-01	7.721129e-01
3.700648098007237e-08	6.913691e-01	6.915236e-01	7.646924e-01	7.766523e-01	6.931309e-01	7.720103e-01
3.700778611970680e-08	6.913698e-01	6.915243e-01	7.647078e-01	7.766157e-01	6.930679e-01	7.709818e-01
3.700923599147077e-08	6.913704e-01	6.915250e-01	7.647249e-01	7.765753e-01	6.928148e-01	7.693388e-01
3.701126879238476e-08	6.913714e-01	6.915261e-01	7.647488e-01	7.765190e-01	6.922851e-01	7.669302e-01
3.701416424053799e-08	6.913728e-01	6.915277e-01	7.647824e-01	7.764396e-01	6.913192e-01	7.639348e-01
3.701995513684445e-08	6.913752e-01	6.915304e-01	7.648482e-01	7.762834e-01	6.883876e-01	7.590105e-01
3.703153692945737e-08	6.913773e-01	6.915331e-01	7.649727e-01	7.759778e-01	6.787406e-01	7.518700e-01
3.705000000000000e-08	6.913748e-01	6.915318e-01	7.651601e-01	7.755001e-01	6.582133e-01	7.451867e-01
3.705197305549129e-08	6.913728e-01	6.915301e-01	7.651780e-01	7.754503e-01	6.558709e-01	7.456406e-01
3.705591916647389e-08	6.913679e-01	6.915256e-01	7.652128e-01	7.753514e-01	6.513263e-01	7.466484e-01
3.706381138843907e-08	6.913537e-01	6.915125e-01	7.652797e-01	7.751554e-01	6.425993e-01	7.485687e-01
3.707152419018307e-08	6.913328e-01	6.914928e-01	7.653412e-01	7.749667e-01	6.344805e-01	7.500293e-01
3.708373546637334e-08	6.912774e-01	6.914403e-01	7.654295e-01	7.746759e-01	6.225764e-01	7.515376e-01
3.710815801875389e-08	6.910821e-01	6.912536e-01	7.655814e-01	7.741200e-01	6.014631e-01	7.532805e-01
